Circuit: * C:\Users\ACER\Desktop\minor_project\jaypal_212vl016\Draft1.asc

Ignoring BSIM parameter XL
Ignoring BSIM parameter XW
Ignoring BSIM parameter XL
Ignoring BSIM parameter XW
Warning: Pd = 0 is less than W.
Warning: Ps = 0 is less than W.
Warning: Pd = 0 is less than W.
Warning: Ps = 0 is less than W.
Warning: Pd = 0 is less than W.
Warning: Ps = 0 is less than W.
Warning: Pd = 0 is less than W.
Warning: Ps = 0 is less than W.
Direct Newton iteration for .op point succeeded.
Semiconductor Device Operating Points:
                        --- BSIM3 MOSFETS ---
Name:        m4          m3          m6          m5          m2
Model:     tsmc35p     tsmc35p     tsmc35n     tsmc35n     tsmc35n
Id:       -1.37e-04   -1.37e-04    2.50e-04    2.73e-04    1.37e-04
Vgs:      -9.70e-01   -9.70e-01    1.17e+00    1.17e+00    1.12e+00
Vds:      -1.70e+00   -1.70e+00    1.17e+00    4.85e-01    1.12e+00
Vbs:       0.00e+00    0.00e+00    0.00e+00    0.00e+00   -4.85e-01
Vth:      -7.72e-01   -7.72e-01    7.40e-01    7.49e-01    8.76e-01
Vdsat:    -2.00e-01   -2.00e-01    3.00e-01    2.95e-01    1.96e-01
Gm:        1.13e-03    1.13e-03    1.07e-03    1.17e-03    1.14e-03
Gds:       1.93e-05    1.93e-05    2.20e-05    9.59e-05    1.76e-05
Gmb        2.27e-04    2.27e-04    2.65e-04    2.90e-04    2.51e-04
Cbd:       0.00e+00    0.00e+00    0.00e+00    0.00e+00    0.00e+00
Cbs:       0.00e+00    0.00e+00    0.00e+00    0.00e+00    0.00e+00
Cgsov:     1.08e-14    1.08e-14    2.63e-15    3.24e-15    4.02e-15
Cgdov:     1.08e-14    1.08e-14    2.63e-15    3.24e-15    4.02e-15
Cgbov:     2.00e-16    2.00e-16    9.06e-17    9.06e-17    9.06e-17
dQgdVgb:   1.11e-13    1.11e-13    2.07e-14    2.55e-14    3.11e-14
dQgdVdb:  -9.91e-15   -9.91e-15   -2.54e-15   -3.22e-15   -3.88e-15
dQgdVsb:  -9.39e-14   -9.39e-14   -1.66e-14   -2.05e-14   -2.52e-14
dQddVgb:  -4.77e-14   -4.77e-14   -8.85e-15   -1.10e-14   -1.35e-14
dQddVdb:   1.03e-14    1.03e-14    2.58e-15    3.26e-15    3.95e-15
dQddVsb:   4.52e-14    4.52e-14    8.12e-15    1.00e-14    1.19e-14
dQbdVgb:  -1.53e-14   -1.53e-14   -2.96e-15   -3.54e-15   -4.11e-15
dQbdVdb:   8.23e-17    8.23e-17    1.40e-17   -6.02e-17    1.66e-17
dQbdVsb:  -7.23e-15   -7.23e-15   -2.24e-15   -2.78e-15   -2.55e-15

Name:        m1
Model:     tsmc35n
Id:        1.37e-04
Vgs:       1.12e+00
Vds:       1.12e+00
Vbs:      -4.85e-01
Vth:       8.76e-01
Vdsat:     1.96e-01
Gm:        1.14e-03
Gds:       1.76e-05
Gmb        2.51e-04
Cbd:       0.00e+00
Cbs:       0.00e+00
Cgsov:     4.02e-15
Cgdov:     4.02e-15
Cgbov:     9.06e-17
dQgdVgb:   3.11e-14
dQgdVdb:  -3.88e-15
dQgdVsb:  -2.52e-14
dQddVgb:  -1.35e-14
dQddVdb:   3.95e-15
dQddVsb:   1.19e-14
dQbdVgb:  -4.11e-15
dQbdVdb:   1.66e-17
dQbdVsb:  -2.55e-15



Date: Fri Apr 29 23:31:45 2022
Total elapsed time: 0.047 seconds.

tnom = 27
temp = 27
method = trap
totiter = 13
traniter = 0
tranpoints = 0
accept = 0
rejected = 0
matrix size = 20
fillins = 7
solver = Normal
Matrix Compiler1: 942 bytes object code size
Matrix Compiler2: 1.52 KB object code size
