Circuit: * C:\Users\ACER\Desktop\minor_project\jaypal_212vl016\transconductor.asc

Ignoring BSIM parameter XL
Ignoring BSIM parameter XW
Ignoring BSIM parameter XL
Ignoring BSIM parameter XW
WARNING: Node V+ is floating.
WARNING: Node V- is floating.
WARNING: Node VCMFB is floating.

WARNING: Less than two connections to node V+.  This node is used by M1.
WARNING: Less than two connections to node V-.  This node is used by M2.
Warning: Pd = 0 is less than W.
Warning: Ps = 0 is less than W.
Warning: Pd = 0 is less than W.
Warning: Ps = 0 is less than W.
Warning: Pd = 0 is less than W.
Warning: Ps = 0 is less than W.
Warning: Pd = 0 is less than W.
Warning: Ps = 0 is less than W.
No AC stimulus found:
     Set the value of a current or voltage source to "AC 1."
     to make it behave as a signal generator for AC analysis.
Direct Newton iteration for .op point succeeded.
Semiconductor Device Operating Points:
                        --- BSIM3 MOSFETS ---
Name:        m4          m3          m6          m5          m2
Model:     tsmc35p     tsmc35p     tsmc35n     tsmc35n     tsmc35n
Id:       -1.08e-11   -1.08e-11    2.50e-04    8.28e-12    1.08e-11
Vgs:      -3.30e+00   -3.30e+00    1.17e+00    1.17e+00   -6.16e-09
Vds:      -1.33e-09   -1.33e-09    1.17e+00    6.16e-09    3.30e+00
Vbs:       0.00e+00    0.00e+00    0.00e+00    0.00e+00   -6.16e-09
Vth:      -7.92e-01   -7.92e-01    7.40e-01    7.53e-01    7.28e-01
Vdsat:    -1.75e+00   -1.75e+00    3.00e-01    2.93e-01    3.91e-02
Gm:        2.48e-12    2.48e-12    1.07e-03    1.88e-11    8.31e-11
Gds:       8.08e-03    8.08e-03    2.20e-05    1.35e-03    2.73e-12
Gmb        1.17e-12    1.17e-12    2.65e-04    5.14e-12    3.70e-11
Cbd:       0.00e+00    0.00e+00    0.00e+00    0.00e+00    0.00e+00
Cbs:       0.00e+00    0.00e+00    0.00e+00    0.00e+00    0.00e+00
Cgsov:     1.25e-14    1.25e-14    2.63e-15    3.24e-15    4.02e-15
Cgdov:     1.25e-14    1.25e-14    2.63e-15    3.24e-15    4.02e-15
Cgbov:     2.00e-16    2.00e-16    9.06e-17    9.06e-17    9.06e-17
dQgdVgb:   1.54e-13    1.54e-13    2.07e-14    2.96e-14    1.86e-14
dQgdVdb:  -7.46e-14   -7.46e-14   -2.54e-15   -1.37e-14   -4.02e-15
dQgdVsb:  -7.68e-14   -7.68e-14   -1.66e-14   -1.51e-14   -4.02e-15
dQddVgb:  -7.68e-14   -7.68e-14   -8.85e-15   -1.47e-14   -4.02e-15
dQddVdb:   6.43e-14    6.43e-14    2.58e-15    1.28e-14    4.02e-15
dQddVsb:   2.61e-14    2.61e-14    8.12e-15    5.37e-15    6.37e-21
dQbdVgb:  -2.59e-16   -2.59e-16   -2.96e-15   -1.58e-16   -1.06e-14
dQbdVdb:  -4.14e-14   -4.14e-14    1.40e-17   -8.63e-15    2.18e-23
dQbdVsb:   1.20e-14    1.20e-14   -2.24e-15    1.12e-15    3.46e-19

Name:        m1
Model:     tsmc35n
Id:        1.08e-11
Vgs:      -6.16e-09
Vds:       3.30e+00
Vbs:      -6.16e-09
Vth:       7.28e-01
Vdsat:     3.91e-02
Gm:        8.31e-11
Gds:       2.73e-12
Gmb        3.70e-11
Cbd:       0.00e+00
Cbs:       0.00e+00
Cgsov:     4.02e-15
Cgdov:     4.02e-15
Cgbov:     9.06e-17
dQgdVgb:   1.86e-14
dQgdVdb:  -4.02e-15
dQgdVsb:  -4.02e-15
dQddVgb:  -4.02e-15
dQddVdb:   4.02e-15
dQddVsb:   6.37e-21
dQbdVgb:  -1.06e-14
dQbdVdb:   2.18e-23
dQbdVsb:   3.46e-19



Date: Fri May 06 18:49:53 2022
Total elapsed time: 0.086 seconds.

tnom = 27
temp = 27
method = trap
totiter = 15
traniter = 0
tranpoints = 0
accept = 0
rejected = 0
matrix size = 9
fillins = 8
solver = Normal
Matrix Compiler1:      57 opcodes
Matrix Compiler2: 919 bytes object code size
